                  * /home/sumanto/videos/xor_xnor/xor_xnor.cir
                  Transient Analysis  Sat Feb  5 15:56:19  2022
--------------------------------------------------------------------------------
Index   time                            a               b               
--------------------------------------------------------------------------------
0	0.000000e+00	0.000000e+00	0.000000e+00	0.000000e+00	
1	1.000000e-12	0.000000e+00	0.000000e+00	0.000000e+00	
2	2.000000e-12	0.000000e+00	0.000000e+00	0.000000e+00	
3	4.000000e-12	0.000000e+00	0.000000e+00	0.000000e+00	
4	8.000000e-12	0.000000e+00	0.000000e+00	0.000000e+00	
5	1.600000e-11	0.000000e+00	0.000000e+00	0.000000e+00	
6	3.200000e-11	0.000000e+00	0.000000e+00	0.000000e+00	
7	6.400000e-11	0.000000e+00	0.000000e+00	0.000000e+00	
8	1.000000e-10	0.000000e+00	0.000000e+00	0.000000e+00	
9	1.064000e-10	0.000000e+00	2.112000e-01	0.000000e+00	
10	1.192000e-10	0.000000e+00	6.336000e-01	0.000000e+00	
11	1.448000e-10	0.000000e+00	1.478400e+00	0.000000e+00	
12	1.786042e-10	0.000000e+00	2.593940e+00	0.000000e+00	
13	2.000000e-10	0.000000e+00	3.300000e+00	0.000000e+00	
14	2.037979e-10	0.000000e+00	3.300000e+00	0.000000e+00	
15	2.113938e-10	0.000000e+00	3.300000e+00	0.000000e+00	
16	2.265855e-10	0.000000e+00	3.300000e+00	0.000000e+00	
17	2.569690e-10	0.000000e+00	3.300000e+00	0.000000e+00	
18	3.177359e-10	0.000000e+00	3.300000e+00	0.000000e+00	
19	3.818295e-10	0.000000e+00	3.300000e+00	0.000000e+00	
20	4.448123e-10	0.000000e+00	3.300000e+00	0.000000e+00	
21	5.143965e-10	0.000000e+00	3.300000e+00	0.000000e+00	
22	5.938357e-10	0.000000e+00	3.300000e+00	0.000000e+00	
23	6.851746e-10	0.000000e+00	3.300000e+00	0.000000e+00	
24	8.449418e-10	0.000000e+00	3.300000e+00	0.000000e+00	
25	1.049575e-09	0.000000e+00	3.300000e+00	0.000000e+00	
26	1.458841e-09	0.000000e+00	3.300000e+00	0.000000e+00	
27	2.277372e-09	0.000000e+00	3.300000e+00	0.000000e+00	
28	3.914436e-09	0.000000e+00	3.300000e+00	0.000000e+00	
29	7.188563e-09	0.000000e+00	3.300000e+00	0.000000e+00	
30	1.373682e-08	0.000000e+00	3.300000e+00	0.000000e+00	
31	2.683333e-08	0.000000e+00	3.300000e+00	0.000000e+00	
32	5.302634e-08	0.000000e+00	3.300000e+00	0.000000e+00	
33	1.054124e-07	0.000000e+00	3.300000e+00	0.000000e+00	
34	2.054124e-07	0.000000e+00	3.300000e+00	0.000000e+00	
35	3.054124e-07	0.000000e+00	3.300000e+00	0.000000e+00	
36	4.054124e-07	0.000000e+00	3.300000e+00	0.000000e+00	
37	5.054124e-07	0.000000e+00	3.300000e+00	0.000000e+00	
38	6.054124e-07	0.000000e+00	3.300000e+00	0.000000e+00	
39	7.054124e-07	0.000000e+00	3.300000e+00	0.000000e+00	
40	8.054124e-07	0.000000e+00	3.300000e+00	0.000000e+00	
41	9.054124e-07	0.000000e+00	3.300000e+00	0.000000e+00	
42	1.000000e-06	0.000000e+00	3.300000e+00	0.000000e+00	
43	1.000010e-06	0.000000e+00	3.300000e+00	3.300000e-01	
44	1.000030e-06	0.000000e+00	3.300000e+00	9.900000e-01	
45	1.000070e-06	0.000000e+00	3.300000e+00	2.310000e+00	
46	1.000100e-06	0.000000e+00	3.300000e+00	3.300000e+00	
47	1.000104e-06	0.000000e+00	3.300000e+00	3.300000e+00	
48	1.000112e-06	0.000000e+00	3.300000e+00	3.300000e+00	
49	1.000128e-06	0.000000e+00	3.300000e+00	3.300000e+00	
50	1.000160e-06	0.000000e+00	3.300000e+00	3.300000e+00	
51	1.000192e-06	0.000000e+00	3.300000e+00	3.300000e+00	
52	1.000227e-06	0.000000e+00	3.300000e+00	3.300000e+00	
53	1.000280e-06	0.000000e+00	3.300000e+00	3.300000e+00	
54	1.000347e-06	0.000000e+00	3.300000e+00	3.300000e+00	

Index   time                            a               b               
--------------------------------------------------------------------------------
55	1.000423e-06	0.000000e+00	3.300000e+00	3.300000e+00	
56	1.000552e-06	0.000000e+00	3.300000e+00	3.300000e+00	
57	1.000729e-06	0.000000e+00	3.300000e+00	3.300000e+00	
58	1.000970e-06	0.000000e+00	3.300000e+00	3.300000e+00	
59	1.001308e-06	0.000000e+00	3.300000e+00	3.300000e+00	
60	1.001803e-06	0.000000e+00	3.300000e+00	3.300000e+00	
61	1.002793e-06	0.000000e+00	3.300000e+00	3.300000e+00	
62	1.004773e-06	0.000000e+00	3.300000e+00	3.300000e+00	
63	1.008732e-06	0.000000e+00	3.300000e+00	3.300000e+00	
64	1.016652e-06	0.000000e+00	3.300000e+00	3.300000e+00	
65	1.032490e-06	0.000000e+00	3.300000e+00	3.300000e+00	
66	1.064166e-06	0.000000e+00	3.300000e+00	3.300000e+00	
67	1.127519e-06	0.000000e+00	3.300000e+00	3.300000e+00	
68	1.227519e-06	0.000000e+00	3.300000e+00	3.300000e+00	
69	1.327519e-06	0.000000e+00	3.300000e+00	3.300000e+00	
70	1.427519e-06	0.000000e+00	3.300000e+00	3.300000e+00	
71	1.527519e-06	0.000000e+00	3.300000e+00	3.300000e+00	
72	1.627519e-06	0.000000e+00	3.300000e+00	3.300000e+00	
73	1.727519e-06	0.000000e+00	3.300000e+00	3.300000e+00	
74	1.827519e-06	0.000000e+00	3.300000e+00	3.300000e+00	
75	1.927519e-06	0.000000e+00	3.300000e+00	3.300000e+00	
76	2.000200e-06	0.000000e+00	3.300000e+00	3.300000e+00	
77	2.000210e-06	0.000000e+00	2.970000e+00	3.300000e+00	
78	2.000230e-06	0.000000e+00	2.310000e+00	3.300000e+00	
79	2.000265e-06	0.000000e+00	1.169901e+00	3.300000e+00	
80	2.000297e-06	0.000000e+00	1.092471e-01	3.300000e+00	
81	2.000300e-06	0.000000e+00	0.000000e+00	3.300000e+00	
82	2.000302e-06	0.000000e+00	0.000000e+00	3.300000e+00	
83	2.000305e-06	0.000000e+00	0.000000e+00	3.300000e+00	
84	2.000312e-06	0.000000e+00	0.000000e+00	3.300000e+00	
85	2.000327e-06	0.000000e+00	0.000000e+00	3.300000e+00	
86	2.000355e-06	0.000000e+00	0.000000e+00	3.300000e+00	
87	2.000412e-06	0.000000e+00	0.000000e+00	3.300000e+00	
88	2.000488e-06	0.000000e+00	0.000000e+00	3.300000e+00	
89	2.000556e-06	0.000000e+00	0.000000e+00	3.300000e+00	
90	2.000626e-06	0.000000e+00	0.000000e+00	3.300000e+00	
91	2.000707e-06	0.000000e+00	0.000000e+00	3.300000e+00	
92	2.000801e-06	0.000000e+00	0.000000e+00	3.300000e+00	
93	2.000956e-06	0.000000e+00	0.000000e+00	3.300000e+00	
94	2.001181e-06	0.000000e+00	0.000000e+00	3.300000e+00	
95	2.001630e-06	0.000000e+00	0.000000e+00	3.300000e+00	
96	2.002529e-06	0.000000e+00	0.000000e+00	3.300000e+00	
97	2.004327e-06	0.000000e+00	0.000000e+00	3.300000e+00	
98	2.007923e-06	0.000000e+00	0.000000e+00	3.300000e+00	
99	2.015114e-06	0.000000e+00	0.000000e+00	3.300000e+00	
100	2.029497e-06	0.000000e+00	0.000000e+00	3.300000e+00	
101	2.058263e-06	0.000000e+00	0.000000e+00	3.300000e+00	
102	2.115794e-06	0.000000e+00	0.000000e+00	3.300000e+00	
103	2.215794e-06	0.000000e+00	0.000000e+00	3.300000e+00	
104	2.315794e-06	0.000000e+00	0.000000e+00	3.300000e+00	
105	2.415794e-06	0.000000e+00	0.000000e+00	3.300000e+00	
106	2.515794e-06	0.000000e+00	0.000000e+00	3.300000e+00	
107	2.615794e-06	0.000000e+00	0.000000e+00	3.300000e+00	
108	2.715794e-06	0.000000e+00	0.000000e+00	3.300000e+00	
109	2.815794e-06	0.000000e+00	0.000000e+00	3.300000e+00	
110	2.915794e-06	0.000000e+00	0.000000e+00	3.300000e+00	
111	3.015794e-06	0.000000e+00	0.000000e+00	3.300000e+00	
112	3.115794e-06	0.000000e+00	0.000000e+00	3.300000e+00	

Index   time                            a               b               
--------------------------------------------------------------------------------
113	3.215794e-06	0.000000e+00	0.000000e+00	3.300000e+00	
114	3.315794e-06	0.000000e+00	0.000000e+00	3.300000e+00	
115	3.415794e-06	0.000000e+00	0.000000e+00	3.300000e+00	
116	3.515794e-06	0.000000e+00	0.000000e+00	3.300000e+00	
117	3.615794e-06	0.000000e+00	0.000000e+00	3.300000e+00	
118	3.715794e-06	0.000000e+00	0.000000e+00	3.300000e+00	
119	3.815794e-06	0.000000e+00	0.000000e+00	3.300000e+00	
120	3.915794e-06	0.000000e+00	0.000000e+00	3.300000e+00	
121	4.000100e-06	0.000000e+00	0.000000e+00	3.300000e+00	
122	4.000110e-06	0.000000e+00	3.300000e-01	3.300000e+00	
123	4.000130e-06	0.000000e+00	9.900000e-01	3.300000e+00	
124	4.000170e-06	0.000000e+00	2.310000e+00	3.300000e+00	
125	4.000200e-06	0.000000e+00	3.300000e+00	3.300000e+00	
126	4.000205e-06	0.000000e+00	3.300000e+00	3.300000e+00	
127	4.000214e-06	0.000000e+00	3.300000e+00	3.300000e+00	
128	4.000233e-06	0.000000e+00	3.300000e+00	3.300000e+00	
129	4.000271e-06	0.000000e+00	3.300000e+00	3.300000e+00	
130	4.000315e-06	0.000000e+00	3.300000e+00	3.300000e+00	
131	4.000357e-06	0.000000e+00	3.300000e+00	3.300000e+00	
132	4.000412e-06	0.000000e+00	3.300000e+00	3.300000e+00	
133	4.000508e-06	0.000000e+00	3.300000e+00	3.300000e+00	
134	4.000608e-06	0.000000e+00	3.300000e+00	3.300000e+00	
135	4.000766e-06	0.000000e+00	3.300000e+00	3.300000e+00	
136	4.000954e-06	0.000000e+00	3.300000e+00	3.300000e+00	
137	4.001293e-06	0.000000e+00	3.300000e+00	3.300000e+00	
138	4.001678e-06	0.000000e+00	3.300000e+00	3.300000e+00	
139	4.002449e-06	0.000000e+00	3.300000e+00	3.300000e+00	
140	4.003990e-06	0.000000e+00	3.300000e+00	3.300000e+00	
141	4.007072e-06	0.000000e+00	3.300000e+00	3.300000e+00	
142	4.013237e-06	0.000000e+00	3.300000e+00	3.300000e+00	
143	4.025566e-06	0.000000e+00	3.300000e+00	3.300000e+00	
144	4.050224e-06	0.000000e+00	3.300000e+00	3.300000e+00	
145	4.099541e-06	0.000000e+00	3.300000e+00	3.300000e+00	
146	4.198175e-06	0.000000e+00	3.300000e+00	3.300000e+00	
147	4.298175e-06	0.000000e+00	3.300000e+00	3.300000e+00	
148	4.398175e-06	0.000000e+00	3.300000e+00	3.300000e+00	
149	4.498175e-06	0.000000e+00	3.300000e+00	3.300000e+00	
150	4.598175e-06	0.000000e+00	3.300000e+00	3.300000e+00	
151	4.698175e-06	0.000000e+00	3.300000e+00	3.300000e+00	
152	4.798175e-06	0.000000e+00	3.300000e+00	3.300000e+00	
153	4.898175e-06	0.000000e+00	3.300000e+00	3.300000e+00	
154	4.998175e-06	0.000000e+00	3.300000e+00	3.300000e+00	
155	5.000100e-06	0.000000e+00	3.300000e+00	3.300000e+00	
156	5.000110e-06	0.000000e+00	3.300000e+00	2.970000e+00	
157	5.000130e-06	0.000000e+00	3.300000e+00	2.310000e+00	
158	5.000165e-06	0.000000e+00	3.300000e+00	1.170172e+00	
159	5.000197e-06	0.000000e+00	3.300000e+00	1.098015e-01	
160	5.000200e-06	0.000000e+00	3.300000e+00	0.000000e+00	
161	5.000202e-06	0.000000e+00	3.300000e+00	0.000000e+00	
162	5.000206e-06	0.000000e+00	3.300000e+00	0.000000e+00	
163	5.000214e-06	0.000000e+00	3.300000e+00	0.000000e+00	
164	5.000231e-06	0.000000e+00	3.300000e+00	0.000000e+00	
165	5.000264e-06	0.000000e+00	3.300000e+00	0.000000e+00	
166	5.000322e-06	0.000000e+00	3.300000e+00	0.000000e+00	
167	5.000384e-06	0.000000e+00	3.300000e+00	0.000000e+00	
168	5.000443e-06	0.000000e+00	3.300000e+00	0.000000e+00	
169	5.000512e-06	0.000000e+00	3.300000e+00	0.000000e+00	
170	5.000590e-06	0.000000e+00	3.300000e+00	0.000000e+00	

Index   time                            a               b               
--------------------------------------------------------------------------------
171	5.000681e-06	0.000000e+00	3.300000e+00	0.000000e+00	
172	5.000846e-06	0.000000e+00	3.300000e+00	0.000000e+00	
173	5.001038e-06	0.000000e+00	3.300000e+00	0.000000e+00	
174	5.001424e-06	0.000000e+00	3.300000e+00	0.000000e+00	
175	5.002196e-06	0.000000e+00	3.300000e+00	0.000000e+00	
176	5.003738e-06	0.000000e+00	3.300000e+00	0.000000e+00	
177	5.006824e-06	0.000000e+00	3.300000e+00	0.000000e+00	
178	5.012995e-06	0.000000e+00	3.300000e+00	0.000000e+00	
179	5.025337e-06	0.000000e+00	3.300000e+00	0.000000e+00	
180	5.050021e-06	0.000000e+00	3.300000e+00	0.000000e+00	
181	5.099389e-06	0.000000e+00	3.300000e+00	0.000000e+00	
182	5.198125e-06	0.000000e+00	3.300000e+00	0.000000e+00	
183	5.298125e-06	0.000000e+00	3.300000e+00	0.000000e+00	
184	5.398125e-06	0.000000e+00	3.300000e+00	0.000000e+00	
185	5.498125e-06	0.000000e+00	3.300000e+00	0.000000e+00	
186	5.598125e-06	0.000000e+00	3.300000e+00	0.000000e+00	
187	5.698125e-06	0.000000e+00	3.300000e+00	0.000000e+00	
188	5.798125e-06	0.000000e+00	3.300000e+00	0.000000e+00	
189	5.898125e-06	0.000000e+00	3.300000e+00	0.000000e+00	
190	5.998125e-06	0.000000e+00	3.300000e+00	0.000000e+00	
191	6.000200e-06	0.000000e+00	3.300000e+00	0.000000e+00	
192	6.000210e-06	0.000000e+00	2.970000e+00	0.000000e+00	
193	6.000230e-06	0.000000e+00	2.310000e+00	0.000000e+00	
194	6.000270e-06	0.000000e+00	9.900000e-01	0.000000e+00	
195	6.000300e-06	0.000000e+00	0.000000e+00	0.000000e+00	
196	6.000305e-06	0.000000e+00	0.000000e+00	0.000000e+00	
197	6.000315e-06	0.000000e+00	0.000000e+00	0.000000e+00	
198	6.000335e-06	0.000000e+00	0.000000e+00	0.000000e+00	
199	6.000374e-06	0.000000e+00	0.000000e+00	0.000000e+00	
200	6.000454e-06	0.000000e+00	0.000000e+00	0.000000e+00	
201	6.000613e-06	0.000000e+00	0.000000e+00	0.000000e+00	
202	6.000859e-06	0.000000e+00	0.000000e+00	0.000000e+00	
203	6.001110e-06	0.000000e+00	0.000000e+00	0.000000e+00	
204	6.001345e-06	0.000000e+00	0.000000e+00	0.000000e+00	
205	6.001576e-06	0.000000e+00	0.000000e+00	0.000000e+00	
206	6.001822e-06	0.000000e+00	0.000000e+00	0.000000e+00	
207	6.002127e-06	0.000000e+00	0.000000e+00	0.000000e+00	
208	6.002603e-06	0.000000e+00	0.000000e+00	0.000000e+00	
209	6.003293e-06	0.000000e+00	0.000000e+00	0.000000e+00	
210	6.004439e-06	0.000000e+00	0.000000e+00	0.000000e+00	
211	6.006265e-06	0.000000e+00	0.000000e+00	0.000000e+00	
212	6.009263e-06	0.000000e+00	0.000000e+00	0.000000e+00	
213	6.014268e-06	0.000000e+00	0.000000e+00	0.000000e+00	
214	6.022509e-06	0.000000e+00	0.000000e+00	0.000000e+00	
215	6.036342e-06	0.000000e+00	0.000000e+00	0.000000e+00	
216	6.059376e-06	0.000000e+00	0.000000e+00	0.000000e+00	
217	6.097897e-06	0.000000e+00	0.000000e+00	0.000000e+00	
218	6.162405e-06	0.000000e+00	0.000000e+00	0.000000e+00	
219	6.262405e-06	0.000000e+00	0.000000e+00	0.000000e+00	
220	6.362405e-06	0.000000e+00	0.000000e+00	0.000000e+00	
221	6.462405e-06	0.000000e+00	0.000000e+00	0.000000e+00	
222	6.562405e-06	0.000000e+00	0.000000e+00	0.000000e+00	
223	6.662405e-06	0.000000e+00	0.000000e+00	0.000000e+00	
224	6.762405e-06	0.000000e+00	0.000000e+00	0.000000e+00	
225	6.862405e-06	0.000000e+00	0.000000e+00	0.000000e+00	
226	6.962405e-06	0.000000e+00	0.000000e+00	0.000000e+00	
227	7.062405e-06	0.000000e+00	0.000000e+00	0.000000e+00	
228	7.162405e-06	0.000000e+00	0.000000e+00	0.000000e+00	

Index   time                            a               b               
--------------------------------------------------------------------------------
229	7.262405e-06	0.000000e+00	0.000000e+00	0.000000e+00	
230	7.362405e-06	0.000000e+00	0.000000e+00	0.000000e+00	
231	7.462405e-06	0.000000e+00	0.000000e+00	0.000000e+00	
232	7.562405e-06	0.000000e+00	0.000000e+00	0.000000e+00	
233	7.662405e-06	0.000000e+00	0.000000e+00	0.000000e+00	
234	7.762405e-06	0.000000e+00	0.000000e+00	0.000000e+00	
235	7.862405e-06	0.000000e+00	0.000000e+00	0.000000e+00	
236	7.962405e-06	0.000000e+00	0.000000e+00	0.000000e+00	
237	8.000100e-06	0.000000e+00	0.000000e+00	0.000000e+00	
238	8.000110e-06	0.000000e+00	3.300000e-01	0.000000e+00	
239	8.000130e-06	0.000000e+00	9.900000e-01	0.000000e+00	
240	8.000157e-06	0.000000e+00	1.886251e+00	0.000000e+00	
241	8.000184e-06	0.000000e+00	2.767794e+00	0.000000e+00	
242	8.000200e-06	0.000000e+00	3.300000e+00	0.000000e+00	
243	8.000205e-06	0.000000e+00	3.300000e+00	0.000000e+00	
244	8.000214e-06	0.000000e+00	3.300000e+00	0.000000e+00	
245	8.000233e-06	0.000000e+00	3.300000e+00	0.000000e+00	
246	8.000272e-06	0.000000e+00	3.300000e+00	0.000000e+00	
247	8.000324e-06	0.000000e+00	3.300000e+00	0.000000e+00	
248	8.000383e-06	0.000000e+00	3.300000e+00	0.000000e+00	
249	8.000438e-06	0.000000e+00	3.300000e+00	0.000000e+00	
250	8.000507e-06	0.000000e+00	3.300000e+00	0.000000e+00	
251	8.000584e-06	0.000000e+00	3.300000e+00	0.000000e+00	
252	8.000673e-06	0.000000e+00	3.300000e+00	0.000000e+00	
253	8.000834e-06	0.000000e+00	3.300000e+00	0.000000e+00	
254	8.001019e-06	0.000000e+00	3.300000e+00	0.000000e+00	
255	8.001388e-06	0.000000e+00	3.300000e+00	0.000000e+00	
256	8.002126e-06	0.000000e+00	3.300000e+00	0.000000e+00	
257	8.003602e-06	0.000000e+00	3.300000e+00	0.000000e+00	
258	8.006554e-06	0.000000e+00	3.300000e+00	0.000000e+00	
259	8.012458e-06	0.000000e+00	3.300000e+00	0.000000e+00	
260	8.024267e-06	0.000000e+00	3.300000e+00	0.000000e+00	
261	8.047884e-06	0.000000e+00	3.300000e+00	0.000000e+00	
262	8.095118e-06	0.000000e+00	3.300000e+00	0.000000e+00	
263	8.189585e-06	0.000000e+00	3.300000e+00	0.000000e+00	
264	8.289585e-06	0.000000e+00	3.300000e+00	0.000000e+00	
265	8.389585e-06	0.000000e+00	3.300000e+00	0.000000e+00	
266	8.489585e-06	0.000000e+00	3.300000e+00	0.000000e+00	
267	8.589585e-06	0.000000e+00	3.300000e+00	0.000000e+00	
268	8.689585e-06	0.000000e+00	3.300000e+00	0.000000e+00	
269	8.789585e-06	0.000000e+00	3.300000e+00	0.000000e+00	
270	8.889585e-06	0.000000e+00	3.300000e+00	0.000000e+00	
271	8.989585e-06	0.000000e+00	3.300000e+00	0.000000e+00	
272	9.000000e-06	0.000000e+00	3.300000e+00	0.000000e+00	
273	9.000010e-06	0.000000e+00	3.300000e+00	3.300000e-01	
274	9.000030e-06	0.000000e+00	3.300000e+00	9.900000e-01	
275	9.000070e-06	0.000000e+00	3.300000e+00	2.310000e+00	
276	9.000100e-06	0.000000e+00	3.300000e+00	3.300000e+00	
277	9.000104e-06	0.000000e+00	3.300000e+00	3.300000e+00	
278	9.000112e-06	0.000000e+00	3.300000e+00	3.300000e+00	
279	9.000128e-06	0.000000e+00	3.300000e+00	3.300000e+00	
280	9.000160e-06	0.000000e+00	3.300000e+00	3.300000e+00	
281	9.000192e-06	0.000000e+00	3.300000e+00	3.300000e+00	
282	9.000227e-06	0.000000e+00	3.300000e+00	3.300000e+00	
283	9.000280e-06	0.000000e+00	3.300000e+00	3.300000e+00	
284	9.000348e-06	0.000000e+00	3.300000e+00	3.300000e+00	
285	9.000423e-06	0.000000e+00	3.300000e+00	3.300000e+00	
286	9.000552e-06	0.000000e+00	3.300000e+00	3.300000e+00	

Index   time                            a               b               
--------------------------------------------------------------------------------
287	9.000729e-06	0.000000e+00	3.300000e+00	3.300000e+00	
288	9.000970e-06	0.000000e+00	3.300000e+00	3.300000e+00	
289	9.001308e-06	0.000000e+00	3.300000e+00	3.300000e+00	
290	9.001804e-06	0.000000e+00	3.300000e+00	3.300000e+00	
291	9.002794e-06	0.000000e+00	3.300000e+00	3.300000e+00	
292	9.004775e-06	0.000000e+00	3.300000e+00	3.300000e+00	
293	9.008737e-06	0.000000e+00	3.300000e+00	3.300000e+00	
294	9.016661e-06	0.000000e+00	3.300000e+00	3.300000e+00	
295	9.032510e-06	0.000000e+00	3.300000e+00	3.300000e+00	
296	9.064207e-06	0.000000e+00	3.300000e+00	3.300000e+00	
297	9.127600e-06	0.000000e+00	3.300000e+00	3.300000e+00	
298	9.227600e-06	0.000000e+00	3.300000e+00	3.300000e+00	
299	9.327600e-06	0.000000e+00	3.300000e+00	3.300000e+00	
300	9.427600e-06	0.000000e+00	3.300000e+00	3.300000e+00	
301	9.527600e-06	0.000000e+00	3.300000e+00	3.300000e+00	
302	9.627600e-06	0.000000e+00	3.300000e+00	3.300000e+00	
303	9.727600e-06	0.000000e+00	3.300000e+00	3.300000e+00	
304	9.827600e-06	0.000000e+00	3.300000e+00	3.300000e+00	
305	9.927600e-06	0.000000e+00	3.300000e+00	3.300000e+00	
306	1.000020e-05	0.000000e+00	3.300000e+00	3.300000e+00	
307	1.000021e-05	0.000000e+00	2.970000e+00	3.300000e+00	
308	1.000023e-05	0.000000e+00	2.310000e+00	3.300000e+00	
309	1.000026e-05	0.000000e+00	1.169903e+00	3.300000e+00	
310	1.000030e-05	0.000000e+00	1.092501e-01	3.300000e+00	
311	1.000030e-05	0.000000e+00	0.000000e+00	3.300000e+00	
312	1.000030e-05	0.000000e+00	0.000000e+00	3.300000e+00	
313	1.000031e-05	0.000000e+00	0.000000e+00	3.300000e+00	
314	1.000031e-05	0.000000e+00	0.000000e+00	3.300000e+00	
315	1.000033e-05	0.000000e+00	0.000000e+00	3.300000e+00	
316	1.000036e-05	0.000000e+00	0.000000e+00	3.300000e+00	
317	1.000041e-05	0.000000e+00	0.000000e+00	3.300000e+00	
318	1.000049e-05	0.000000e+00	0.000000e+00	3.300000e+00	
319	1.000056e-05	0.000000e+00	0.000000e+00	3.300000e+00	
320	1.000063e-05	0.000000e+00	0.000000e+00	3.300000e+00	
321	1.000071e-05	0.000000e+00	0.000000e+00	3.300000e+00	
322	1.000080e-05	0.000000e+00	0.000000e+00	3.300000e+00	
323	1.000096e-05	0.000000e+00	0.000000e+00	3.300000e+00	
324	1.000118e-05	0.000000e+00	0.000000e+00	3.300000e+00	
325	1.000163e-05	0.000000e+00	0.000000e+00	3.300000e+00	
326	1.000253e-05	0.000000e+00	0.000000e+00	3.300000e+00	
327	1.000433e-05	0.000000e+00	0.000000e+00	3.300000e+00	
328	1.000792e-05	0.000000e+00	0.000000e+00	3.300000e+00	
329	1.001511e-05	0.000000e+00	0.000000e+00	3.300000e+00	
330	1.002950e-05	0.000000e+00	0.000000e+00	3.300000e+00	
331	1.005826e-05	0.000000e+00	0.000000e+00	3.300000e+00	
