                  * /home/sumanto/videos/xor_xnor/xor_xnor.cir
                  Transient Analysis  Sat Feb  5 15:56:19  2022
--------------------------------------------------------------------------------
Index   time            v1#branch       v2#branch       v3#branch       
--------------------------------------------------------------------------------
0	0.000000e+00	3.352016e-12	3.352016e-12	-1.99468e-11	
1	1.000000e-12	3.352017e-12	3.352017e-12	-1.99469e-11	
2	2.000000e-12	3.352015e-12	3.352014e-12	-1.99468e-11	
3	4.000000e-12	3.352015e-12	3.352024e-12	-1.99468e-11	
4	8.000000e-12	3.352010e-12	3.352004e-12	-1.99469e-11	
5	1.600000e-11	3.352020e-12	3.352026e-12	-1.99469e-11	
6	3.200000e-11	3.352012e-12	3.352006e-12	-1.99467e-11	
7	6.400000e-11	3.352020e-12	3.352026e-12	-1.99469e-11	
8	1.000000e-10	3.352013e-12	3.352006e-12	-1.99468e-11	
9	1.064000e-10	-1.30220e-04	2.548213e-05	3.229035e-05	
10	1.192000e-10	-2.03814e-04	9.485009e-05	4.741436e-05	
11	1.448000e-10	-3.66696e-04	3.183896e-04	3.253493e-05	
12	1.786042e-10	-4.77595e-04	6.212336e-04	-1.15628e-05	
13	2.000000e-10	-5.75050e-04	6.337328e-04	5.648780e-05	
14	2.037979e-10	-1.38186e-04	3.535505e-04	-4.85040e-05	
15	2.113938e-10	-1.35442e-04	3.523765e-04	-6.57753e-05	
16	2.265855e-10	-1.39329e-04	3.480680e-04	-8.58453e-05	
17	2.569690e-10	-1.50557e-04	3.345558e-04	-1.03875e-04	
18	3.177359e-10	-1.73784e-04	2.402764e-04	-2.88547e-05	
19	3.818295e-10	-1.36794e-04	1.112152e-04	5.461477e-05	
20	4.448123e-10	-1.14624e-04	7.482523e-05	4.015342e-05	
21	5.143965e-10	-3.30974e-05	1.725629e-05	2.452516e-05	
22	5.938357e-10	-1.16674e-05	4.484686e-06	-2.04477e-06	
23	6.851746e-10	2.638145e-06	2.642331e-07	6.543910e-06	
24	8.449418e-10	-3.48628e-06	8.524629e-08	-6.07589e-06	
25	1.049575e-09	3.561207e-06	-9.31942e-08	6.022961e-06	
26	1.458841e-09	-3.56866e-06	8.425574e-08	-6.01048e-06	
27	2.277372e-09	3.569038e-06	-7.86150e-08	6.005989e-06	
28	3.914436e-09	-3.56882e-06	7.605770e-08	-6.00431e-06	
29	7.188563e-09	3.568578e-06	-7.44403e-08	6.003211e-06	
30	1.373682e-08	-3.56846e-06	7.395774e-08	-6.00300e-06	
31	2.683333e-08	3.568373e-06	-7.33420e-08	6.002581e-06	
32	5.302634e-08	-3.56835e-06	7.345431e-08	-6.00268e-06	
33	1.054124e-07	3.568319e-06	-7.31135e-08	6.002420e-06	
34	2.054124e-07	-3.56832e-06	7.330316e-08	-6.00261e-06	
35	3.054124e-07	3.568299e-06	-7.30271e-08	6.002365e-06	
36	4.054124e-07	-3.56830e-06	7.321121e-08	-6.00255e-06	
37	5.054124e-07	3.568279e-06	-7.29351e-08	6.002311e-06	
38	6.054124e-07	-3.56828e-06	7.311926e-08	-6.00250e-06	
39	7.054124e-07	3.568259e-06	-7.28432e-08	6.002257e-06	
40	8.054124e-07	-3.56826e-06	7.302731e-08	-6.00245e-06	
41	9.054124e-07	3.568238e-06	-7.27512e-08	6.002203e-06	
42	1.000000e-06	-3.56824e-06	7.293307e-08	-6.00239e-06	
43	1.000010e-06	3.032396e-04	-4.97769e-04	6.302573e-05	
44	1.000030e-06	4.064170e-04	-6.18816e-04	8.383541e-05	
45	1.000070e-06	2.515762e-04	-5.15442e-04	9.491504e-05	
46	1.000100e-06	1.188314e-04	-4.01980e-04	8.518988e-05	
47	1.000104e-06	-3.70021e-05	-3.72668e-05	-7.96526e-05	
48	1.000112e-06	-3.01284e-05	-2.98924e-05	-9.70383e-05	
49	1.000128e-06	-2.59415e-05	-2.61572e-05	-1.10400e-04	
50	1.000160e-06	-1.51751e-05	-1.49729e-05	-1.31387e-04	
51	1.000192e-06	-3.27033e-05	-3.28912e-05	-7.56659e-05	
52	1.000227e-06	-3.36129e-06	-3.18629e-06	-1.58893e-04	
53	1.000280e-06	-1.00673e-05	-1.02339e-05	-7.51071e-05	
54	1.000347e-06	2.318188e-05	2.334185e-05	-1.21588e-04	

Index   time            v1#branch       v2#branch       v3#branch       
--------------------------------------------------------------------------------
55	1.000423e-06	-1.37477e-05	-1.39018e-05	-1.85177e-05	
56	1.000552e-06	1.519644e-05	1.534699e-05	-6.35429e-05	
57	1.000729e-06	-1.48087e-05	-1.49567e-05	3.428811e-05	
58	1.000970e-06	1.489028e-05	1.503640e-05	-3.90354e-05	
59	1.001308e-06	-1.48979e-05	-1.50427e-05	3.891430e-05	
60	1.001803e-06	1.490286e-05	1.504675e-05	-3.88714e-05	
61	1.002793e-06	-1.49052e-05	-1.50487e-05	3.885356e-05	
62	1.004773e-06	1.490636e-05	1.504956e-05	-3.88456e-05	
63	1.008732e-06	-1.49069e-05	-1.50500e-05	3.884134e-05	
64	1.016652e-06	1.490719e-05	1.505023e-05	-3.88396e-05	
65	1.032490e-06	-1.49073e-05	-1.50503e-05	3.883840e-05	
66	1.064166e-06	1.490740e-05	1.505039e-05	-3.88381e-05	
67	1.127519e-06	-1.49074e-05	-1.50504e-05	3.883767e-05	
68	1.227519e-06	1.490746e-05	1.505044e-05	-3.88377e-05	
69	1.327519e-06	-1.49075e-05	-1.50505e-05	3.883736e-05	
70	1.427519e-06	1.490750e-05	1.505047e-05	-3.88374e-05	
71	1.527519e-06	-1.49075e-05	-1.50505e-05	3.883705e-05	
72	1.627519e-06	1.490755e-05	1.505051e-05	-3.88371e-05	
73	1.727519e-06	-1.49076e-05	-1.50505e-05	3.883675e-05	
74	1.827519e-06	1.490759e-05	1.505054e-05	-3.88368e-05	
75	1.927519e-06	-1.49076e-05	-1.50506e-05	3.883644e-05	
76	2.000200e-06	1.490764e-05	1.505058e-05	-3.88365e-05	
77	2.000210e-06	1.411587e-04	-2.22920e-05	-8.44727e-05	
78	2.000230e-06	2.087899e-04	-1.40305e-04	-2.70085e-05	
79	2.000265e-06	6.559662e-04	-4.84406e-04	-6.32431e-05	
80	2.000297e-06	6.165079e-04	-3.11577e-04	-7.44472e-05	
81	2.000300e-06	9.260247e-04	-5.94656e-04	-1.02448e-04	
82	2.000302e-06	3.559427e-04	-1.37194e-04	-5.27815e-05	
83	2.000305e-06	3.515783e-04	-1.38041e-04	-5.78044e-05	
84	2.000312e-06	3.539174e-04	-1.36944e-04	-6.94452e-05	
85	2.000327e-06	3.469748e-04	-1.38397e-04	-8.73175e-05	
86	2.000355e-06	3.388842e-04	-1.48782e-04	-1.03691e-04	
87	2.000412e-06	2.536431e-04	-1.73809e-04	-4.60700e-05	
88	2.000488e-06	1.069171e-04	-1.36890e-04	5.985122e-05	
89	2.000556e-06	7.001496e-05	-1.06633e-04	3.284211e-05	
90	2.000626e-06	1.373390e-05	-2.95997e-05	2.724082e-05	
91	2.000707e-06	4.497818e-06	-8.76965e-06	-7.74330e-06	
92	2.000801e-06	-5.32202e-07	1.387409e-06	1.138650e-05	
93	2.000956e-06	7.555814e-07	-2.00485e-06	-1.10260e-05	
94	2.001181e-06	-7.40000e-07	2.038391e-06	1.098950e-05	
95	2.001630e-06	7.274806e-07	-2.03880e-06	-1.09797e-05	
96	2.002529e-06	-7.20726e-07	2.037009e-06	1.097583e-05	
97	2.004327e-06	7.181797e-07	-2.03589e-06	-1.09743e-05	
98	2.007923e-06	-7.15662e-07	2.035219e-06	1.097344e-05	
99	2.015114e-06	7.154275e-07	-2.03491e-06	-1.09732e-05	
100	2.029497e-06	-7.14641e-07	2.034728e-06	1.097285e-05	
101	2.058263e-06	7.147459e-07	-2.03466e-06	-1.09730e-05	
102	2.115794e-06	-7.14386e-07	2.034602e-06	1.097270e-05	
103	2.215794e-06	7.145696e-07	-2.03459e-06	-1.09729e-05	
104	2.315794e-06	-7.14278e-07	2.034553e-06	1.097265e-05	
105	2.415794e-06	7.144558e-07	-2.03454e-06	-1.09728e-05	
106	2.515794e-06	-7.14165e-07	2.034504e-06	1.097259e-05	
107	2.615794e-06	7.143422e-07	-2.03449e-06	-1.09728e-05	
108	2.715794e-06	-7.14051e-07	2.034455e-06	1.097254e-05	
109	2.815794e-06	7.142286e-07	-2.03444e-06	-1.09727e-05	
110	2.915794e-06	-7.13938e-07	2.034406e-06	1.097249e-05	
111	3.015794e-06	7.141151e-07	-2.03439e-06	-1.09727e-05	
112	3.115794e-06	-7.13824e-07	2.034356e-06	1.097244e-05	

Index   time            v1#branch       v2#branch       v3#branch       
--------------------------------------------------------------------------------
113	3.215794e-06	7.140016e-07	-2.03435e-06	-1.09726e-05	
114	3.315794e-06	-7.13711e-07	2.034307e-06	1.097238e-05	
115	3.415794e-06	7.138882e-07	-2.03430e-06	-1.09726e-05	
116	3.515794e-06	-7.13597e-07	2.034257e-06	1.097233e-05	
117	3.615794e-06	7.137748e-07	-2.03425e-06	-1.09725e-05	
118	3.715794e-06	-7.13484e-07	2.034207e-06	1.097228e-05	
119	3.815794e-06	7.136615e-07	-2.03420e-06	-1.09725e-05	
120	3.915794e-06	-7.13371e-07	2.034157e-06	1.097223e-05	
121	4.000100e-06	7.135393e-07	-2.03414e-06	-1.09724e-05	
122	4.000110e-06	-4.97764e-04	3.032259e-04	6.302375e-05	
123	4.000130e-06	-6.18803e-04	4.064192e-04	8.383731e-05	
124	4.000170e-06	-5.15452e-04	2.515719e-04	9.491322e-05	
125	4.000200e-06	-4.01969e-04	1.188354e-04	8.519067e-05	
126	4.000205e-06	-3.65849e-05	-3.63576e-05	-8.12796e-05	
127	4.000214e-06	-2.93228e-05	-2.95254e-05	-9.90436e-05	
128	4.000233e-06	-2.32387e-05	-2.30521e-05	-1.17316e-04	
129	4.000271e-06	-1.91439e-05	-1.93202e-05	-1.16866e-04	
130	4.000315e-06	-2.34924e-05	-2.33251e-05	-1.02200e-04	
131	4.000357e-06	1.455378e-06	1.297382e-06	-1.41440e-04	
132	4.000412e-06	1.992341e-06	2.143178e-06	-7.75298e-05	
133	4.000508e-06	1.053994e-05	1.039316e-05	-8.19985e-05	
134	4.000608e-06	-8.46698e-06	-8.32411e-06	-1.28366e-05	
135	4.000766e-06	9.028330e-06	8.887948e-06	-3.04810e-05	
136	4.000954e-06	-8.85073e-06	-8.71244e-06	2.043265e-05	
137	4.001293e-06	8.852317e-06	8.715182e-06	-2.16548e-05	
138	4.001678e-06	-8.84435e-06	-8.70823e-06	2.188719e-05	
139	4.002449e-06	8.840094e-06	8.704481e-06	-2.19378e-05	
140	4.003990e-06	-8.83804e-06	-8.70268e-06	2.195694e-05	
141	4.007072e-06	8.837021e-06	8.701788e-06	-2.19658e-05	
142	4.013237e-06	-8.83653e-06	-8.70136e-06	2.196969e-05	
143	4.025566e-06	8.836272e-06	8.701134e-06	-2.19719e-05	
144	4.050224e-06	-8.83615e-06	-8.70103e-06	2.197269e-05	
145	4.099541e-06	8.836086e-06	8.700972e-06	-2.19734e-05	
146	4.198175e-06	-8.83606e-06	-8.70095e-06	2.197342e-05	
147	4.298175e-06	8.836024e-06	8.700918e-06	-2.19739e-05	
148	4.398175e-06	-8.83600e-06	-8.70090e-06	2.197391e-05	
149	4.498175e-06	8.835963e-06	8.700865e-06	-2.19744e-05	
150	4.598175e-06	-8.83594e-06	-8.70085e-06	2.197439e-05	
151	4.698175e-06	8.835902e-06	8.700812e-06	-2.19749e-05	
152	4.798175e-06	-8.83588e-06	-8.70079e-06	2.197487e-05	
153	4.898175e-06	8.835841e-06	8.700759e-06	-2.19753e-05	
154	4.998175e-06	-8.83582e-06	-8.70074e-06	2.197534e-05	
155	5.000100e-06	8.834246e-06	8.699369e-06	-2.19862e-05	
156	5.000110e-06	-2.22348e-05	1.412171e-04	-8.42330e-05	
157	5.000130e-06	-1.40316e-04	2.087773e-04	-2.67779e-05	
158	5.000165e-06	-4.84361e-04	6.559309e-04	-6.33632e-05	
159	5.000197e-06	-3.11545e-04	6.163538e-04	-7.42883e-05	
160	5.000200e-06	-5.94627e-04	9.260313e-04	-1.02570e-04	
161	5.000202e-06	-1.37243e-04	3.556484e-04	-5.32031e-05	
162	5.000206e-06	-1.37959e-04	3.516705e-04	-5.91126e-05	
163	5.000214e-06	-1.36997e-04	3.533103e-04	-7.21846e-05	
164	5.000231e-06	-1.38804e-04	3.460124e-04	-9.16259e-05	
165	5.000264e-06	-1.55549e-04	3.314478e-04	-1.01769e-04	
166	5.000322e-06	-1.70027e-04	2.337804e-04	-2.73024e-05	
167	5.000384e-06	-1.39772e-04	1.138593e-04	5.575065e-05	
168	5.000443e-06	-1.15314e-04	7.528961e-05	4.066590e-05	
169	5.000512e-06	-3.95008e-05	2.212621e-05	2.679875e-05	
170	5.000590e-06	-9.58484e-06	2.042482e-06	-2.32734e-06	

Index   time            v1#branch       v2#branch       v3#branch       
--------------------------------------------------------------------------------
171	5.000681e-06	-5.92290e-07	3.249296e-06	7.417995e-06	
172	5.000846e-06	-4.02178e-07	-2.81705e-06	-6.88075e-06	
173	5.001038e-06	5.185366e-07	2.784402e-06	6.809185e-06	
174	5.001424e-06	-5.32900e-07	-2.78932e-06	-6.79298e-06	
175	5.002196e-06	5.354334e-07	2.794171e-06	6.787464e-06	
176	5.003738e-06	-5.36327e-07	-2.79517e-06	-6.78492e-06	
177	5.006824e-06	5.364967e-07	2.796984e-06	6.783669e-06	
178	5.012995e-06	-5.36609e-07	-2.79710e-06	-6.78329e-06	
179	5.025337e-06	5.366262e-07	2.797715e-06	6.782816e-06	
180	5.050021e-06	-5.36658e-07	-2.79758e-06	-6.78289e-06	
181	5.099389e-06	5.366510e-07	2.797899e-06	6.782608e-06	
182	5.198125e-06	-5.36668e-07	-2.79770e-06	-6.78279e-06	
183	5.298125e-06	5.366584e-07	2.797965e-06	6.782540e-06	
184	5.398125e-06	-5.36676e-07	-2.79777e-06	-6.78272e-06	
185	5.498125e-06	5.366655e-07	2.798035e-06	6.782474e-06	
186	5.598125e-06	-5.36683e-07	-2.79784e-06	-6.78266e-06	
187	5.698125e-06	5.366723e-07	2.798105e-06	6.782408e-06	
188	5.798125e-06	-5.36689e-07	-2.79791e-06	-6.78259e-06	
189	5.898125e-06	5.366789e-07	2.798176e-06	6.782342e-06	
190	5.998125e-06	-5.36696e-07	-2.79798e-06	-6.78252e-06	
191	6.000200e-06	5.367645e-07	2.800140e-06	6.780786e-06	
192	6.000210e-06	4.693583e-04	-3.00221e-04	-1.25096e-04	
193	6.000230e-06	5.286126e-04	-4.03001e-04	-9.41005e-05	
194	6.000270e-06	4.762505e-04	-3.54005e-04	-8.29487e-05	
195	6.000300e-06	3.432196e-04	-1.42702e-04	-6.88774e-05	
196	6.000305e-06	9.408109e-06	9.436387e-06	-2.06676e-05	
197	6.000315e-06	7.460453e-06	7.431223e-06	-1.98871e-05	
198	6.000335e-06	7.845650e-06	7.872574e-06	-1.87643e-05	
199	6.000374e-06	5.463227e-06	5.436415e-06	-1.79660e-05	
200	6.000454e-06	6.316399e-06	6.343186e-06	-1.86535e-05	
201	6.000613e-06	4.374002e-06	4.346985e-06	-2.16671e-05	
202	6.000859e-06	2.346595e-06	2.374063e-06	-2.35945e-05	
203	6.001110e-06	-4.63952e-06	-4.66749e-06	-1.18620e-04	
204	6.001345e-06	6.247591e-06	6.276095e-06	-1.43720e-05	
205	6.001576e-06	-5.49781e-06	-5.52685e-06	-1.55208e-05	
206	6.001822e-06	5.330950e-06	5.360507e-06	1.158074e-05	
207	6.002127e-06	-5.20810e-06	-5.23807e-06	-1.05941e-05	
208	6.002603e-06	5.142799e-06	5.173029e-06	1.008479e-05	
209	6.003293e-06	-5.10296e-06	-5.13337e-06	-9.77180e-06	
210	6.004439e-06	5.080798e-06	5.111318e-06	9.598700e-06	
211	6.006265e-06	-5.06754e-06	-5.09813e-06	-9.49488e-06	
212	6.009263e-06	5.059711e-06	5.090342e-06	9.433637e-06	
213	6.014268e-06	-5.05510e-06	-5.08575e-06	-9.39761e-06	
214	6.022509e-06	5.052335e-06	5.083006e-06	9.375934e-06	
215	6.036342e-06	-5.05069e-06	-5.08137e-06	-9.36316e-06	
216	6.059376e-06	5.049717e-06	5.080402e-06	9.355457e-06	
217	6.097897e-06	-5.04913e-06	-5.07981e-06	-9.35093e-06	
218	6.162405e-06	5.048783e-06	5.079474e-06	9.348160e-06	
219	6.262405e-06	-5.04855e-06	-5.07924e-06	-9.34644e-06	
220	6.362405e-06	5.048334e-06	5.079027e-06	9.344646e-06	
221	6.462405e-06	-5.04810e-06	-5.07880e-06	-9.34293e-06	
222	6.562405e-06	5.047886e-06	5.078581e-06	9.341138e-06	
223	6.662405e-06	-5.04765e-06	-5.07835e-06	-9.33943e-06	
224	6.762405e-06	5.047437e-06	5.078135e-06	9.337634e-06	
225	6.862405e-06	-5.04721e-06	-5.07791e-06	-9.33592e-06	
226	6.962405e-06	5.046990e-06	5.077690e-06	9.334135e-06	
227	7.062405e-06	-5.04676e-06	-5.07746e-06	-9.33243e-06	
228	7.162405e-06	5.046543e-06	5.077246e-06	9.330641e-06	

Index   time            v1#branch       v2#branch       v3#branch       
--------------------------------------------------------------------------------
229	7.262405e-06	-5.04631e-06	-5.07702e-06	-9.32894e-06	
230	7.362405e-06	5.046097e-06	5.076802e-06	9.327151e-06	
231	7.462405e-06	-5.04587e-06	-5.07657e-06	-9.32545e-06	
232	7.562405e-06	5.045651e-06	5.076359e-06	9.323666e-06	
233	7.662405e-06	-5.04542e-06	-5.07613e-06	-9.32197e-06	
234	7.762405e-06	5.045206e-06	5.075917e-06	9.320187e-06	
235	7.862405e-06	-5.04498e-06	-5.07569e-06	-9.31849e-06	
236	7.962405e-06	5.044762e-06	5.075475e-06	9.316711e-06	
237	8.000100e-06	-5.04417e-06	-5.07488e-06	-9.31215e-06	
238	8.000110e-06	-1.31999e-04	2.821993e-05	3.186896e-05	
239	8.000130e-06	-2.96496e-04	1.803649e-04	5.548327e-05	
240	8.000157e-06	-4.05773e-04	4.696107e-04	-2.28204e-06	
241	8.000184e-06	-4.86330e-04	5.754992e-04	2.182147e-05	
242	8.000200e-06	-5.92441e-04	7.089237e-04	2.717184e-05	
243	8.000205e-06	-1.37971e-04	3.533389e-04	-5.09543e-05	
244	8.000214e-06	-1.35777e-04	3.516919e-04	-7.07008e-05	
245	8.000233e-06	-1.40321e-04	3.458939e-04	-9.35407e-05	
246	8.000272e-06	-1.61888e-04	3.183968e-04	-9.70492e-05	
247	8.000324e-06	-1.64812e-04	2.267483e-04	-2.36229e-05	
248	8.000383e-06	-1.43427e-04	1.140389e-04	5.615284e-05	
249	8.000438e-06	-1.14533e-04	7.723336e-05	4.184097e-05	
250	8.000507e-06	-4.71727e-05	2.533570e-05	2.835102e-05	
251	8.000584e-06	-7.03393e-06	1.884571e-06	-1.58890e-06	
252	8.000673e-06	-4.43875e-06	3.989094e-06	7.362407e-06	
253	8.000834e-06	3.232540e-06	-3.44106e-06	-6.72397e-06	
254	8.001019e-06	-3.09165e-06	3.389787e-06	6.644603e-06	
255	8.001388e-06	3.073389e-06	-3.39156e-06	-6.62756e-06	
256	8.002126e-06	-3.06936e-06	3.395038e-06	6.621639e-06	
257	8.003602e-06	3.068059e-06	-3.39599e-06	-6.61931e-06	
258	8.006554e-06	-3.06753e-06	3.397375e-06	6.617903e-06	
259	8.012458e-06	3.067282e-06	-3.39750e-06	-6.61752e-06	
260	8.024267e-06	-3.06719e-06	3.398008e-06	6.617036e-06	
261	8.047884e-06	3.067126e-06	-3.39788e-06	-6.61711e-06	
262	8.095118e-06	-3.06712e-06	3.398169e-06	6.616822e-06	
263	8.189585e-06	3.067089e-06	-3.39797e-06	-6.61700e-06	
264	8.289585e-06	-3.06709e-06	3.398224e-06	6.616753e-06	
265	8.389585e-06	3.067066e-06	-3.39803e-06	-6.61694e-06	
266	8.489585e-06	-3.06707e-06	3.398280e-06	6.616687e-06	
267	8.589585e-06	3.067042e-06	-3.39808e-06	-6.61687e-06	
268	8.689585e-06	-3.06705e-06	3.398335e-06	6.616621e-06	
269	8.789585e-06	3.067020e-06	-3.39814e-06	-6.61680e-06	
270	8.889585e-06	-3.06702e-06	3.398391e-06	6.616556e-06	
271	8.989585e-06	3.066997e-06	-3.39820e-06	-6.61674e-06	
272	9.000000e-06	-3.06691e-06	3.398709e-06	6.616218e-06	
273	9.000010e-06	3.033063e-04	-4.97898e-04	6.308572e-05	
274	9.000030e-06	4.063719e-04	-6.18734e-04	8.376889e-05	
275	9.000070e-06	2.516208e-04	-5.15531e-04	9.498451e-05	
276	9.000100e-06	1.187849e-04	-4.01890e-04	8.512238e-05	
277	9.000104e-06	-3.69993e-05	-3.72637e-05	-7.96596e-05	
278	9.000112e-06	-3.01265e-05	-2.98908e-05	-9.70448e-05	
279	9.000128e-06	-2.59292e-05	-2.61447e-05	-1.10429e-04	
280	9.000160e-06	-1.51849e-05	-1.49829e-05	-1.31350e-04	
281	9.000192e-06	-3.26943e-05	-3.28820e-05	-7.56813e-05	
282	9.000227e-06	-3.33069e-06	-3.15583e-06	-1.58970e-04	
283	9.000280e-06	-1.00752e-05	-1.02416e-05	-7.50540e-05	
284	9.000348e-06	2.319230e-05	2.335212e-05	-1.21600e-04	
285	9.000423e-06	-1.37651e-05	-1.39189e-05	-1.84773e-05	
286	9.000552e-06	1.521337e-05	1.536377e-05	-6.35744e-05	

Index   time            v1#branch       v2#branch       v3#branch       
--------------------------------------------------------------------------------
287	9.000729e-06	-1.48258e-05	-1.49737e-05	3.433630e-05	
288	9.000970e-06	1.490733e-05	1.505331e-05	-3.90819e-05	
289	9.001308e-06	-1.49149e-05	-1.50596e-05	3.896205e-05	
290	9.001804e-06	1.491990e-05	1.506365e-05	-3.89194e-05	
291	9.002794e-06	-1.49222e-05	-1.50655e-05	3.890155e-05	
292	9.004775e-06	1.492338e-05	1.506645e-05	-3.88936e-05	
293	9.008737e-06	-1.49239e-05	-1.50669e-05	3.888934e-05	
294	9.016661e-06	1.492421e-05	1.506711e-05	-3.88876e-05	
295	9.032510e-06	-1.49244e-05	-1.50672e-05	3.888640e-05	
296	9.064207e-06	1.492442e-05	1.506728e-05	-3.88861e-05	
297	9.127600e-06	-1.49245e-05	-1.50673e-05	3.888567e-05	
298	9.227600e-06	1.492447e-05	1.506732e-05	-3.88858e-05	
299	9.327600e-06	-1.49245e-05	-1.50673e-05	3.888537e-05	
300	9.427600e-06	1.492452e-05	1.506736e-05	-3.88854e-05	
301	9.527600e-06	-1.49245e-05	-1.50674e-05	3.888506e-05	
302	9.627600e-06	1.492456e-05	1.506739e-05	-3.88851e-05	
303	9.727600e-06	-1.49246e-05	-1.50674e-05	3.888475e-05	
304	9.827600e-06	1.492461e-05	1.506743e-05	-3.88848e-05	
305	9.927600e-06	-1.49246e-05	-1.50675e-05	3.888445e-05	
306	1.000020e-05	1.492466e-05	1.506747e-05	-3.88845e-05	
307	1.000021e-05	1.411588e-04	-2.22919e-05	-8.44732e-05	
308	1.000023e-05	2.087898e-04	-1.40305e-04	-2.70079e-05	
309	1.000026e-05	6.559661e-04	-4.84406e-04	-6.32436e-05	
310	1.000030e-05	6.165070e-04	-3.11577e-04	-7.44465e-05	
311	1.000030e-05	9.260247e-04	-5.94656e-04	-1.02448e-04	
312	1.000030e-05	3.559426e-04	-1.37194e-04	-5.27816e-05	
313	1.000031e-05	3.515783e-04	-1.38041e-04	-5.78044e-05	
314	1.000031e-05	3.539174e-04	-1.36944e-04	-6.94455e-05	
315	1.000033e-05	3.469747e-04	-1.38397e-04	-8.73179e-05	
316	1.000036e-05	3.388837e-04	-1.48783e-04	-1.03691e-04	
317	1.000041e-05	2.536402e-04	-1.73809e-04	-4.60667e-05	
318	1.000049e-05	1.069185e-04	-1.36890e-04	5.985030e-05	
319	1.000056e-05	7.001417e-05	-1.06632e-04	3.284214e-05	
320	1.000063e-05	1.373350e-05	-2.95991e-05	2.724034e-05	
321	1.000071e-05	4.498626e-06	-8.77075e-06	-7.74265e-06	
322	1.000080e-05	-5.33037e-07	1.388449e-06	1.138591e-05	
323	1.000096e-05	7.564348e-07	-2.00590e-06	-1.10254e-05	
324	1.000118e-05	-7.40860e-07	2.039446e-06	1.098890e-05	
325	1.000163e-05	7.283437e-07	-2.03985e-06	-1.09791e-05	
326	1.000253e-05	-7.21590e-07	2.038066e-06	1.097524e-05	
327	1.000433e-05	7.190445e-07	-2.03695e-06	-1.09737e-05	
328	1.000792e-05	-7.16527e-07	2.036277e-06	1.097284e-05	
329	1.001511e-05	7.162927e-07	-2.03597e-06	-1.09726e-05	
330	1.002950e-05	-7.15506e-07	2.035786e-06	1.097225e-05	
331	1.005826e-05	7.156113e-07	-2.03572e-06	-1.09724e-05	
